T1C8C 000:010.195   SEGGER J-Link V6.98e Log File
T1C8C 000:010.318   DLL Compiled: Mar 29 2021 14:18:39
T1C8C 000:010.334   Logging started @ 2023-12-05 02:53
T1C8C 000:010.349 - 10.357ms
T1C8C 000:010.370 JLINK_SetWarnOutHandler(...)
T1C8C 000:010.385 - 0.021ms
T1C8C 000:010.401 JLINK_OpenEx(...)
T1C8C 000:012.200   Firmware: J-Link V9 compiled May  7 2021 16:26:12
T1C8C 000:012.858   Firmware: J-Link V9 compiled May  7 2021 16:26:12
T1C8C 000:013.056   Decompressing FW timestamp took 133 us
T1C8C 000:020.486   Hardware: V9.30
T1C8C 000:020.535   S/N: 59300616
T1C8C 000:020.562   OEM: SEGGER
T1C8C 000:020.588   Feature(s): RDI, FlashBP, FlashDL, JFlash, GDB
T1C8C 000:022.315   TELNET listener socket opened on port 19021
T1C8C 000:022.454   WEBSRV Starting webserver
T1C8C 000:022.630   WEBSRV Webserver running on local port 19080
T1C8C 000:022.668 - 12.278ms returns "O.K."
T1C8C 000:022.699 JLINK_GetEmuCaps()
T1C8C 000:022.718 - 0.027ms returns 0xB9FF7BBF
T1C8C 000:022.748 JLINK_TIF_GetAvailable(...)
T1C8C 000:022.995 - 0.266ms
T1C8C 000:023.032 JLINK_SetErrorOutHandler(...)
T1C8C 000:023.050 - 0.026ms
T1C8C 000:023.080 JLINK_ExecCommand("ProjectFile = "D:\zixingche\duoji111\duoji\F407\F407ZGT6\MDK-ARM\JLinkSettings.ini"", ...). 
T1C8C 000:030.966   Ref file found at: D:\Keil5\MDK5\ARM\Segger\JLinkDevices.ref
T1C8C 000:031.108   XML referenced by ref file: C:\Program Files (x86)\SEGGER\JLink\JLinkDevices.xml
T1C8C 000:031.671   C:\Program Files (x86)\SEGGER\JLink\JLinkDevices.xml evaluated successfully.
T1C8C 000:082.250   Device "ARM7" selected.
T1C8C 000:082.519 - 59.447ms returns 0x00
T1C8C 000:082.639 JLINK_ExecCommand("Device = STM32F407ZG", ...). 
T1C8C 000:083.139   Device "STM32F407ZG" selected.
T1C8C 000:083.513 - 0.855ms returns 0x00
T1C8C 000:083.544 JLINK_GetHardwareVersion()
T1C8C 000:083.562 - 0.027ms returns 93000
T1C8C 000:083.582 JLINK_GetDLLVersion()
T1C8C 000:083.599 - 0.026ms returns 69805
T1C8C 000:083.619 JLINK_GetOEMString(...)
T1C8C 000:083.640 JLINK_GetFirmwareString(...)
T1C8C 000:083.658 - 0.026ms
T1C8C 000:083.691 JLINK_GetDLLVersion()
T1C8C 000:083.709 - 0.026ms returns 69805
T1C8C 000:083.728 JLINK_GetCompileDateTime()
T1C8C 000:083.745 - 0.026ms
T1C8C 000:083.770 JLINK_GetFirmwareString(...)
T1C8C 000:083.788 - 0.026ms
T1C8C 000:083.811 JLINK_GetHardwareVersion()
T1C8C 000:083.828 - 0.026ms returns 93000
T1C8C 000:083.851 JLINK_GetSN()
T1C8C 000:083.870 - 0.026ms returns 59300616
T1C8C 000:083.892 JLINK_GetOEMString(...)
T1C8C 000:083.920 JLINK_TIF_Select(JLINKARM_TIF_SWD)
T1C8C 000:084.959 - 1.059ms returns 0x00
T1C8C 000:084.993 JLINK_HasError()
T1C8C 000:085.018 JLINK_SetSpeed(10000)
T1C8C 000:085.261 - 0.259ms
T1C8C 000:085.292 JLINK_GetId()
T1C8C 000:086.722   Found SW-DP with ID 0x2BA01477
T1C8C 000:101.643   Found SW-DP with ID 0x2BA01477
T1C8C 000:104.262   DPIDR: 0x2BA01477
T1C8C 000:104.285   Scanning AP map to find all available APs
T1C8C 000:104.848   AP[1]: Stopped AP scan as end of AP map has been reached
T1C8C 000:104.870   AP[0]: AHB-AP (IDR: 0x24770011)
T1C8C 000:104.891   Iterating through AP map to find AHB-AP to use
T1C8C 000:105.743   AP[0]: Core found
T1C8C 000:105.765   AP[0]: AHB-AP ROM base: 0xE00FF000
T1C8C 000:106.185   CPUID register: 0x410FC241. Implementer code: 0x41 (ARM)
T1C8C 000:106.206   Found Cortex-M4 r0p1, Little endian.
T1C8C 000:207.347   -- Max. mem block: 0x00006300
T1C8C 000:207.787   CPU_ReadMem(4 bytes @ 0xE000EDF0)
T1C8C 000:208.295   CPU_ReadMem(4 bytes @ 0xE0002000)
T1C8C 000:208.921   FPUnit: 6 code (BP) slots and 2 literal slots
T1C8C 000:209.003   CPU_ReadMem(4 bytes @ 0xE000EDFC)
T1C8C 000:209.593   CPU_WriteMem(4 bytes @ 0xE000EDFC)
T1C8C 000:210.175   CPU_ReadMem(4 bytes @ 0xE0001000)
T1C8C 000:210.778   CPU_WriteMem(4 bytes @ 0xE0001000)
T1C8C 000:211.403   CPU_ReadMem(4 bytes @ 0xE000ED88)
T1C8C 000:211.935   CPU_WriteMem(4 bytes @ 0xE000ED88)
T1C8C 000:212.546   CPU_ReadMem(4 bytes @ 0xE000ED88)
T1C8C 000:213.045   CPU_WriteMem(4 bytes @ 0xE000ED88)
T1C8C 000:213.700   CoreSight components:
T1C8C 000:213.901   ROMTbl[0] @ E00FF000
T1C8C 000:213.965   CPU_ReadMem(64 bytes @ 0xE00FF000)
T1C8C 000:214.823   CPU_ReadMem(32 bytes @ 0xE000EFE0)
T1C8C 000:215.626   ROMTbl[0][0]: E000E000, CID: B105E00D, PID: 000BB00C SCS-M7
T1C8C 000:215.708   CPU_ReadMem(32 bytes @ 0xE0001FE0)
T1C8C 000:216.423   ROMTbl[0][1]: E0001000, CID: B105E00D, PID: 003BB002 DWT
T1C8C 000:216.505   CPU_ReadMem(32 bytes @ 0xE0002FE0)
T1C8C 000:217.238   ROMTbl[0][2]: E0002000, CID: B105E00D, PID: 002BB003 FPB
T1C8C 000:217.320   CPU_ReadMem(32 bytes @ 0xE0000FE0)
T1C8C 000:218.012   ROMTbl[0][3]: E0000000, CID: B105E00D, PID: 003BB001 ITM
T1C8C 000:218.094   CPU_ReadMem(32 bytes @ 0xE0040FE0)
T1C8C 000:218.820   ROMTbl[0][4]: E0040000, CID: B105900D, PID: 000BB9A1 TPIU
T1C8C 000:218.902   CPU_ReadMem(32 bytes @ 0xE0041FE0)
T1C8C 000:219.588   ROMTbl[0][5]: E0041000, CID: B105900D, PID: 000BB925 ETM
T1C8C 000:220.149 - 134.896ms returns 0x2BA01477
T1C8C 000:220.230 JLINK_GetDLLVersion()
T1C8C 000:220.270 - 0.067ms returns 69805
T1C8C 000:220.325 JLINK_CORE_GetFound()
T1C8C 000:220.365 - 0.059ms returns 0xE0000FF
T1C8C 000:220.418 JLINK_GetDebugInfo(0x100 = JLINKARM_ROM_TABLE_ADDR_INDEX)
T1C8C 000:220.462   Value=0xE00FF000
T1C8C 000:220.520 - 0.121ms returns 0
T1C8C 000:220.592 JLINK_GetDebugInfo(0x100 = JLINKARM_ROM_TABLE_ADDR_INDEX)
T1C8C 000:220.633   Value=0xE00FF000
T1C8C 000:220.690 - 0.117ms returns 0
T1C8C 000:220.736 JLINK_GetDebugInfo(0x101 = JLINKARM_DEBUG_INFO_ETM_ADDR_INDEX)
T1C8C 000:220.776   Value=0xE0041000
T1C8C 000:220.834 - 0.118ms returns 0
T1C8C 000:220.880 JLINK_ReadMemEx(0xE0041FD0, 0x20 Bytes, Flags = 0x02000004)
T1C8C 000:220.946   CPU_ReadMem(32 bytes @ 0xE0041FD0)
T1C8C 000:221.639   Data:  04 00 00 00 00 00 00 00 00 00 00 00 00 00 00 00 ...
T1C8C 000:221.717 - 0.858ms returns 32 (0x20)
T1C8C 000:221.774 JLINK_GetDebugInfo(0x102 = JLINKARM_DEBUG_INFO_MTB_ADDR_INDEX)
T1C8C 000:221.816   Value=0x00000000
T1C8C 000:221.873 - 0.118ms returns 0
T1C8C 000:221.920 JLINK_GetDebugInfo(0x103 = JLINKARM_DEBUG_INFO_TPIU_ADDR_INDEX)
T1C8C 000:221.960   Value=0xE0040000
T1C8C 000:222.017 - 0.116ms returns 0
T1C8C 000:222.062 JLINK_GetDebugInfo(0x104 = JLINKARM_DEBUG_INFO_ITM_ADDR_INDEX)
T1C8C 000:222.101   Value=0xE0000000
T1C8C 000:222.159 - 0.116ms returns 0
T1C8C 000:222.204 JLINK_GetDebugInfo(0x105 = JLINKARM_DEBUG_INFO_DWT_ADDR_INDEX)
T1C8C 000:222.243   Value=0xE0001000
T1C8C 000:222.300 - 0.116ms returns 0
T1C8C 000:222.345 JLINK_GetDebugInfo(0x106 = JLINKARM_DEBUG_INFO_FPB_ADDR_INDEX)
T1C8C 000:222.384   Value=0xE0002000
T1C8C 000:222.442 - 0.116ms returns 0
T1C8C 000:222.487 JLINK_GetDebugInfo(0x107 = JLINKARM_DEBUG_INFO_NVIC_ADDR_INDEX)
T1C8C 000:222.527   Value=0xE000E000
T1C8C 000:222.584 - 0.123ms returns 0
T1C8C 000:222.636 JLINK_GetDebugInfo(0x10C = JLINKARM_DEBUG_INFO_DBG_ADDR_INDEX)
T1C8C 000:222.676   Value=0xE000EDF0
T1C8C 000:222.733 - 0.116ms returns 0
T1C8C 000:222.778 JLINK_GetDebugInfo(0x01 = Unknown)
T1C8C 000:222.817   Value=0x00000001
T1C8C 000:222.874 - 0.115ms returns 0
T1C8C 000:222.918 JLINK_ReadMemU32(0xE000ED00, 0x1 Items)
T1C8C 000:222.970   CPU_ReadMem(4 bytes @ 0xE000ED00)
T1C8C 000:223.552   Data:  41 C2 0F 41
T1C8C 000:223.617   Debug reg: CPUID
T1C8C 000:223.664 - 0.761ms returns 1 (0x1)
T1C8C 000:223.709 JLINK_GetDebugInfo(0x10F = JLINKARM_DEBUG_INFO_HAS_CORTEX_M_SECURITY_EXT_INDEX)
T1C8C 000:223.744   Value=0x00000000
T1C8C 000:223.790 - 0.096ms returns 0
T1C8C 000:223.828 JLINK_HasError()
T1C8C 000:223.863 JLINK_SetResetType(JLINKARM_CM3_RESET_TYPE_NORMAL)
T1C8C 000:223.896 - 0.048ms returns JLINKARM_CM3_RESET_TYPE_NORMAL
T1C8C 000:223.933 JLINK_Reset()
T1C8C 000:223.985   CPU is running
T1C8C 000:224.036   CPU_WriteMem(4 bytes @ 0xE000EDF0)
T1C8C 000:224.602   CPU is running
T1C8C 000:224.698   CPU_WriteMem(4 bytes @ 0xE000EDFC)
T1C8C 000:225.296   Reset: Halt core after reset via DEMCR.VC_CORERESET.
T1C8C 000:226.078   Reset: Reset device via AIRCR.SYSRESETREQ.
T1C8C 000:226.145   CPU is running
T1C8C 000:226.207   CPU_WriteMem(4 bytes @ 0xE000ED0C)
T1C8C 000:279.298   CPU_ReadMem(4 bytes @ 0xE000EDF0)
T1C8C 000:279.857   CPU_ReadMem(4 bytes @ 0xE000EDF0)
T1C8C 000:280.392   CPU is running
T1C8C 000:280.482   CPU_WriteMem(4 bytes @ 0xE000EDF0)
T1C8C 000:280.978   CPU is running
T1C8C 000:281.069   CPU_WriteMem(4 bytes @ 0xE000EDFC)
T1C8C 000:286.895   CPU_ReadMem(4 bytes @ 0xE000EDF0)
T1C8C 000:290.052   CPU_WriteMem(4 bytes @ 0xE0002000)
T1C8C 000:290.627   CPU_ReadMem(4 bytes @ 0xE000EDFC)
T1C8C 000:291.160   CPU_ReadMem(4 bytes @ 0xE0001000)
T1C8C 000:291.660 - 67.771ms
T1C8C 000:291.750 JLINK_HasError()
T1C8C 000:291.800 JLINK_ReadReg(R15 (PC))
T1C8C 000:291.858 - 0.080ms returns 0x08000228
T1C8C 000:291.909 JLINK_ReadReg(XPSR)
T1C8C 000:291.953 - 0.065ms returns 0x01000000
T1C8C 000:292.005 JLINK_Halt()
T1C8C 000:292.047 - 0.063ms returns 0x00
T1C8C 000:292.096 JLINK_ReadMemU32(0xE000EDF0, 0x1 Items)
T1C8C 000:292.151   CPU_ReadMem(4 bytes @ 0xE000EDF0)
T1C8C 000:292.635   Data:  03 00 03 00
T1C8C 000:292.721   Debug reg: DHCSR
T1C8C 000:292.785 - 0.709ms returns 1 (0x1)
T1C8C 000:292.841 JLINK_WriteU32_64(0xE000EDF0, 0xA05F0003)
T1C8C 000:292.893   Debug reg: DHCSR
T1C8C 000:293.516   CPU_WriteMem(4 bytes @ 0xE000EDF0)
T1C8C 000:294.075 - 1.273ms returns 0 (0x00000000)
T1C8C 000:294.152 JLINK_WriteU32_64(0xE000EDFC, 0x01000000)
T1C8C 000:294.195   Debug reg: DEMCR
T1C8C 000:294.268   CPU_WriteMem(4 bytes @ 0xE000EDFC)
T1C8C 000:294.781 - 0.668ms returns 0 (0x00000000)
T1C8C 000:295.004 JLINK_GetHWStatus(...)
T1C8C 000:295.367 - 0.402ms returns 0
T1C8C 000:295.482 JLINK_GetNumBPUnits(Type = 0xFFFFFF00)
T1C8C 000:295.527 - 0.064ms returns 0x06
T1C8C 000:295.570 JLINK_GetNumBPUnits(Type = 0xF0)
T1C8C 000:295.609 - 0.058ms returns 0x2000
T1C8C 000:295.651 JLINK_GetNumWPUnits()
T1C8C 000:295.689 - 0.057ms returns 4
T1C8C 000:295.767 JLINK_GetSpeed()
T1C8C 000:295.813 - 0.065ms returns 6000
T1C8C 000:295.870 JLINK_ReadMemU32(0xE000E004, 0x1 Items)
T1C8C 000:295.923   CPU_ReadMem(4 bytes @ 0xE000E004)
T1C8C 000:296.496   Data:  02 00 00 00
T1C8C 000:296.576 - 0.726ms returns 1 (0x1)
T1C8C 000:296.626 JLINK_ReadMemU32(0xE000E004, 0x1 Items)
T1C8C 000:296.680   CPU_ReadMem(4 bytes @ 0xE000E004)
T1C8C 000:297.200   Data:  02 00 00 00
T1C8C 000:297.285 - 0.681ms returns 1 (0x1)
T1C8C 000:297.339 JLINK_WriteMemEx(0xE0001000, 0x0000001C Bytes, Flags = 0x02000004)
T1C8C 000:297.383   Data:  01 00 00 00 00 00 00 00 00 00 00 00 00 00 00 00 ...
T1C8C 000:297.465   CPU_WriteMem(28 bytes @ 0xE0001000)
T1C8C 000:298.095 - 0.795ms returns 0x1C
T1C8C 000:298.165 JLINK_HasError()
T1C8C 000:298.210 JLINK_ReadReg(R15 (PC))
T1C8C 000:298.258 - 0.067ms returns 0x08000228
T1C8C 000:298.301 JLINK_ReadReg(XPSR)
T1C8C 000:298.341 - 0.060ms returns 0x01000000
T1C8C 000:301.935 JLINK_SWO_Control(JLINKARM_SWO_CMD_GET_SPEED_INFO, ...)
T1C8C 000:302.287 - 0.374ms returns 0x00
T1C8C 000:302.326 JLINK_SWO_Control(JLINKARM_SWO_CMD_STOP, ...)
T1C8C 000:302.352 - 0.037ms returns 0x00
T1C8C 000:302.376 JLINK_SWO_Control(JLINKARM_SWO_CMD_START, ...)
T1C8C 000:302.743    -- UART
T1C8C 000:302.788    -- 7304347bps
T1C8C 000:303.343   CPU_ReadMem(4 bytes @ 0xE0042004)
T1C8C 000:304.190 - 1.835ms returns 0x00
T1C8C 000:304.228 JLINK_WriteU32_64(0xE0040010, 0x00000016)
T1C8C 000:304.253   Debug reg: TPIU_ACPR
T1C8C 000:304.297 - 0.080ms returns 0 (0x00000000)
T1C8C 000:304.322 JLINK_WriteU32_64(0xE00400F0, 0x00000002)
T1C8C 000:304.344   Debug reg: TPIU_SPPR
T1C8C 000:304.379 - 0.068ms returns 0 (0x00000000)
T1C8C 000:304.403 JLINK_WriteU32_64(0xE0040304, 0x00000000)
T1C8C 000:304.426   Debug reg: TPIU_FFCR
T1C8C 000:304.463 - 0.070ms returns 0 (0x00000000)
T1C8C 000:304.487 JLINK_WriteU32_64(0xE0000FB0, 0xC5ACCE55)
T1C8C 000:304.510   Debug reg: ITM_LOCKACCESS
T1C8C 000:304.549   CPU_WriteMem(4 bytes @ 0xE0000FB0)
T1C8C 000:305.051 - 0.588ms returns 0 (0x00000000)
T1C8C 000:305.093 JLINK_WriteU32_64(0xE0000E80, 0x0001000D)
T1C8C 000:305.115   Debug reg: ITM_TCR
T1C8C 000:305.159 - 0.076ms returns 0 (0x00000000)
T1C8C 000:305.182 JLINK_WriteU32_64(0xE0000E00, 0x00000001)
T1C8C 000:305.203   Debug reg: ITM_TER
T1C8C 000:305.235 - 0.063ms returns 0 (0x00000000)
T1C8C 000:305.257 JLINK_WriteU32_64(0xE0000E40, 0x00000000)
T1C8C 000:305.277   Debug reg: ITM_TPR
T1C8C 000:305.309 - 0.062ms returns 0 (0x00000000)
T1C8C 000:305.331 JLINK_WriteU32_64(0xE0001000, 0x00010A1F)
T1C8C 000:305.352   Debug reg: DWT_CTRL
T1C8C 000:305.383 - 0.062ms returns 0 (0x00000000)
T1C8C 000:314.883 JLINK_ReadMemEx(0xE0001004, 0x4 Bytes, Flags = 0x02000000)
T1C8C 000:314.911   Data:  00 00 00 00
T1C8C 000:314.930   Debug reg: DWT_CYCCNT
T1C8C 000:314.948 - 0.071ms returns 4 (0x4)
T1C8C 000:400.845 JLINK_HasError()
T1C8C 000:400.901 JLINK_SetResetType(JLINKARM_CM3_RESET_TYPE_NORMAL)
T1C8C 000:400.927 - 0.038ms returns JLINKARM_CM3_RESET_TYPE_NORMAL
T1C8C 000:400.954 JLINK_Reset()
T1C8C 000:400.989   CPU_WriteMem(4 bytes @ 0xE0000E00)
T1C8C 000:401.028   CPU_WriteMem(4 bytes @ 0xE0000E40)
T1C8C 000:401.063   CPU_WriteMem(4 bytes @ 0xE0000E80)
T1C8C 000:401.104   CPU_WriteMem(4 bytes @ 0xE0001000)
T1C8C 000:401.141   CPU_WriteMem(4 bytes @ 0xE0040010)
T1C8C 000:401.178   CPU_WriteMem(4 bytes @ 0xE00400F0)
T1C8C 000:401.214   CPU_WriteMem(4 bytes @ 0xE0040304)
T1C8C 000:402.648   CPU_WriteMem(4 bytes @ 0xE000EDF0)
T1C8C 000:403.184   CPU_WriteMem(4 bytes @ 0xE000EDFC)
T1C8C 000:403.756   Reset: Halt core after reset via DEMCR.VC_CORERESET.
T1C8C 000:404.537   Reset: Reset device via AIRCR.SYSRESETREQ.
T1C8C 000:404.579   CPU_WriteMem(4 bytes @ 0xE000ED0C)
T1C8C 000:458.216   CPU_ReadMem(4 bytes @ 0xE000EDF0)
T1C8C 000:458.803   CPU_ReadMem(4 bytes @ 0xE000EDF0)
T1C8C 000:459.333   CPU_WriteMem(4 bytes @ 0xE000EDF0)
T1C8C 000:459.951   CPU_WriteMem(4 bytes @ 0xE000EDFC)
T1C8C 000:465.686   CPU_ReadMem(4 bytes @ 0xE000EDF0)
T1C8C 000:468.966   CPU_WriteMem(4 bytes @ 0xE0002000)
T1C8C 000:469.583   CPU_ReadMem(4 bytes @ 0xE000EDFC)
T1C8C 000:470.175   CPU_ReadMem(4 bytes @ 0xE0001000)
T1C8C 000:470.772   CPU_ReadMem(4 bytes @ 0xE0042004)
T1C8C 000:471.290 - 70.379ms
T1C8C 000:471.379 JLINK_WriteU32_64(0xE000EDFC, 0x01000000)
T1C8C 000:471.428   Debug reg: DEMCR
T1C8C 000:471.505   CPU_WriteMem(4 bytes @ 0xE000EDFC)
T1C8C 000:472.002 - 0.663ms returns 0 (0x00000000)
T1C8C 000:472.702 JLINK_HasError()
T1C8C 000:472.772 JLINK_ReadReg(R15 (PC))
T1C8C 000:472.821 - 0.069ms returns 0x08000228
T1C8C 000:472.865 JLINK_ReadReg(XPSR)
T1C8C 000:472.906 - 0.060ms returns 0x01000000
T1C8C 000:477.777 JLINK_ReadMemEx(0x08000228, 0x3C Bytes, Flags = 0x02000000)
T1C8C 000:477.797   CPU_ReadMem(128 bytes @ 0x08000200)
T1C8C 000:478.766    -- Updating C cache (128 bytes @ 0x08000200)
T1C8C 000:478.817    -- Read from C cache (60 bytes @ 0x08000228)
T1C8C 000:478.845   Data:  09 48 80 47 09 48 00 47 FE E7 FE E7 FE E7 FE E7 ...
T1C8C 000:478.871 - 1.103ms returns 60 (0x3C)
T1C8C 000:478.893 JLINK_ReadMemEx(0x08000228, 0x2 Bytes, Flags = 0x02000000)
T1C8C 000:478.913    -- Read from C cache (2 bytes @ 0x08000228)
T1C8C 000:478.939   Data:  09 48
T1C8C 000:478.965 - 0.080ms returns 2 (0x2)
T1C8C 000:479.284 JLINK_ReadMemEx(0x0800022A, 0x2 Bytes, Flags = 0x02000000)
T1C8C 000:479.305    -- Read from C cache (2 bytes @ 0x0800022A)
T1C8C 000:479.324   Data:  80 47
T1C8C 000:479.342 - 0.064ms returns 2 (0x2)
T1C8C 000:479.365 JLINK_ReadMemEx(0x0800022A, 0x2 Bytes, Flags = 0x02000000)
T1C8C 000:479.380    -- Read from C cache (2 bytes @ 0x0800022A)
T1C8C 000:479.400   Data:  80 47
T1C8C 000:479.453 - 0.106ms returns 2 (0x2)
T1C8C 000:479.493 JLINK_ReadMemEx(0x0800022C, 0x3C Bytes, Flags = 0x02000000)
T1C8C 000:479.531    -- Read from C cache (60 bytes @ 0x0800022C)
T1C8C 000:479.587   Data:  09 48 00 47 FE E7 FE E7 FE E7 FE E7 FE E7 FE E7 ...
T1C8C 000:479.641 - 0.165ms returns 60 (0x3C)
T1C8C 000:479.680 JLINK_ReadMemEx(0x0800022C, 0x2 Bytes, Flags = 0x02000000)
T1C8C 000:479.717    -- Read from C cache (2 bytes @ 0x0800022C)
T1C8C 000:479.771   Data:  09 48
T1C8C 000:485.541 - 5.905ms returns 2 (0x2)
T1C8C 000:576.508 JLINK_WriteU32_64(0xE0001008, 0x00000000)
T1C8C 000:576.543   Debug reg: DWT_CPICNT
T1C8C 000:576.574 - 0.072ms returns 0 (0x00000000)
T1C8C 000:576.589 JLINK_WriteU32_64(0xE000100C, 0x00000000)
T1C8C 000:576.602   Debug reg: DWT_EXCCNT
T1C8C 000:576.620 - 0.037ms returns 0 (0x00000000)
T1C8C 000:576.634 JLINK_WriteU32_64(0xE0001010, 0x00000000)
T1C8C 000:576.646   Debug reg: DWT_SLEEPCNT
T1C8C 000:576.665 - 0.037ms returns 0 (0x00000000)
T1C8C 000:576.678 JLINK_WriteU32_64(0xE0001014, 0x00000000)
T1C8C 000:576.691   Debug reg: DWT_LSUCNT
T1C8C 000:576.709 - 0.037ms returns 0 (0x00000000)
T1C8C 000:576.722 JLINK_WriteU32_64(0xE0001018, 0x00000000)
T1C8C 000:576.735   Debug reg: DWT_FOLDCNT
T1C8C 000:576.753 - 0.036ms returns 0 (0x00000000)
T1C8C 001:445.045 JLINK_HasError()
T1C8C 001:445.096 JLINK_ReadReg(R0)
T1C8C 001:445.588 - 0.509ms returns 0x00000000
T1C8C 001:445.620 JLINK_ReadReg(R1)
T1C8C 001:445.638 - 0.027ms returns 0x00000000
T1C8C 001:445.658 JLINK_ReadReg(R2)
T1C8C 001:445.675 - 0.026ms returns 0x00000000
T1C8C 001:445.694 JLINK_ReadReg(R3)
T1C8C 001:445.712 - 0.026ms returns 0x00000000
T1C8C 001:445.731 JLINK_ReadReg(R4)
T1C8C 001:445.749 - 0.026ms returns 0x00000000
T1C8C 001:445.768 JLINK_ReadReg(R5)
T1C8C 001:445.786 - 0.026ms returns 0x00000000
T1C8C 001:445.805 JLINK_ReadReg(R6)
T1C8C 001:445.823 - 0.026ms returns 0x00000000
T1C8C 001:445.841 JLINK_ReadReg(R7)
T1C8C 001:445.859 - 0.026ms returns 0x00000000
T1C8C 001:445.878 JLINK_ReadReg(R8)
T1C8C 001:445.902 - 0.032ms returns 0x00000000
T1C8C 001:445.921 JLINK_ReadReg(R9)
T1C8C 001:445.939 - 0.026ms returns 0x00000000
T1C8C 001:445.958 JLINK_ReadReg(R10)
T1C8C 001:445.976 - 0.029ms returns 0x00000000
T1C8C 001:446.329 JLINK_ReadReg(R11)
T1C8C 001:446.352 - 0.029ms returns 0x00000000
T1C8C 001:446.367 JLINK_ReadReg(R12)
T1C8C 001:446.380 - 0.019ms returns 0x00000000
T1C8C 001:446.395 JLINK_ReadReg(R13 (SP))
T1C8C 001:446.408 - 0.020ms returns 0x20001818
T1C8C 001:446.423 JLINK_ReadReg(R14)
T1C8C 001:446.436 - 0.019ms returns 0xFFFFFFFF
T1C8C 001:446.450 JLINK_ReadReg(R15 (PC))
T1C8C 001:446.463 - 0.019ms returns 0x08000228
T1C8C 001:446.477 JLINK_ReadReg(XPSR)
T1C8C 001:446.491 - 0.019ms returns 0x01000000
T1C8C 001:446.505 JLINK_ReadReg(MSP)
T1C8C 001:446.518 - 0.019ms returns 0x20001818
T1C8C 001:446.532 JLINK_ReadReg(PSP)
T1C8C 001:446.545 - 0.019ms returns 0x00000000
T1C8C 001:446.559 JLINK_ReadReg(CFBP)
T1C8C 001:446.572 - 0.019ms returns 0x00000000
T1C8C 001:446.587 JLINK_ReadReg(FPSCR)
T1C8C 001:449.756 - 3.215ms returns 0x00000000
T1C8C 001:449.821 JLINK_ReadReg(FPS0)
T1C8C 001:449.844 - 0.032ms returns 0x00000000
T1C8C 001:449.867 JLINK_ReadReg(FPS1)
T1C8C 001:449.885 - 0.026ms returns 0x00000000
T1C8C 001:449.907 JLINK_ReadReg(FPS2)
T1C8C 001:449.925 - 0.026ms returns 0x00000000
T1C8C 001:449.947 JLINK_ReadReg(FPS3)
T1C8C 001:449.965 - 0.026ms returns 0x00000000
T1C8C 001:449.987 JLINK_ReadReg(FPS4)
T1C8C 001:450.005 - 0.027ms returns 0x00000000
T1C8C 001:450.027 JLINK_ReadReg(FPS5)
T1C8C 001:450.045 - 0.026ms returns 0x00000000
T1C8C 001:450.067 JLINK_ReadReg(FPS6)
T1C8C 001:450.085 - 0.026ms returns 0x00000000
T1C8C 001:450.107 JLINK_ReadReg(FPS7)
T1C8C 001:450.124 - 0.026ms returns 0x00000000
T1C8C 001:450.146 JLINK_ReadReg(FPS8)
T1C8C 001:450.164 - 0.026ms returns 0x00000000
T1C8C 001:450.186 JLINK_ReadReg(FPS9)
T1C8C 001:450.204 - 0.026ms returns 0x00000000
T1C8C 001:450.226 JLINK_ReadReg(FPS10)
T1C8C 001:450.244 - 0.026ms returns 0x00000000
T1C8C 001:450.266 JLINK_ReadReg(FPS11)
T1C8C 001:450.284 - 0.026ms returns 0x00000000
T1C8C 001:450.309 JLINK_ReadReg(FPS12)
T1C8C 001:450.328 - 0.026ms returns 0x00000000
T1C8C 001:450.350 JLINK_ReadReg(FPS13)
T1C8C 001:450.368 - 0.026ms returns 0x00000000
T1C8C 001:450.390 JLINK_ReadReg(FPS14)
T1C8C 001:450.407 - 0.026ms returns 0x00000000
T1C8C 001:450.429 JLINK_ReadReg(FPS15)
T1C8C 001:450.447 - 0.026ms returns 0x00000000
T1C8C 001:450.469 JLINK_ReadReg(FPS16)
T1C8C 001:450.537 - 0.078ms returns 0x00000000
T1C8C 001:450.561 JLINK_ReadReg(FPS17)
T1C8C 001:450.579 - 0.026ms returns 0x00000000
T1C8C 001:450.601 JLINK_ReadReg(FPS18)
T1C8C 001:450.620 - 0.027ms returns 0x00000000
T1C8C 001:450.642 JLINK_ReadReg(FPS19)
T1C8C 001:450.659 - 0.026ms returns 0x00000000
T1C8C 001:450.682 JLINK_ReadReg(FPS20)
T1C8C 001:450.699 - 0.028ms returns 0x00000000
T1C8C 001:450.724 JLINK_ReadReg(FPS21)
T1C8C 001:450.742 - 0.028ms returns 0x00000000
T1C8C 001:450.766 JLINK_ReadReg(FPS22)
T1C8C 001:450.784 - 0.026ms returns 0x00000000
T1C8C 001:450.806 JLINK_ReadReg(FPS23)
T1C8C 001:450.824 - 0.026ms returns 0x00000000
T1C8C 001:450.846 JLINK_ReadReg(FPS24)
T1C8C 001:450.864 - 0.026ms returns 0x00000000
T1C8C 001:450.886 JLINK_ReadReg(FPS25)
T1C8C 001:450.904 - 0.026ms returns 0x00000000
T1C8C 001:450.926 JLINK_ReadReg(FPS26)
T1C8C 001:450.944 - 0.027ms returns 0x00000000
T1C8C 001:450.966 JLINK_ReadReg(FPS27)
T1C8C 001:450.984 - 0.026ms returns 0x00000000
T1C8C 001:451.006 JLINK_ReadReg(FPS28)
T1C8C 001:451.024 - 0.026ms returns 0x00000000
T1C8C 001:451.046 JLINK_ReadReg(FPS29)
T1C8C 001:451.064 - 0.026ms returns 0x00000000
T1C8C 001:451.086 JLINK_ReadReg(FPS30)
T1C8C 001:451.104 - 0.027ms returns 0x00000000
T1C8C 001:451.126 JLINK_ReadReg(FPS31)
T1C8C 001:451.144 - 0.026ms returns 0x00000000
T1C8C 001:461.597 JLINK_ReadMemEx(0x20000068, 0x4 Bytes, Flags = 0x02000000)
T1C8C 001:461.647   CPU_ReadMem(64 bytes @ 0x20000040)
T1C8C 001:462.292    -- Updating C cache (64 bytes @ 0x20000040)
T1C8C 001:462.317    -- Read from C cache (4 bytes @ 0x20000068)
T1C8C 001:462.336   Data:  01 00 00 00
T1C8C 001:462.354 - 0.763ms returns 4 (0x4)
T1C8C 001:462.722 JLINK_ReadMemEx(0x20000068, 0x4 Bytes, Flags = 0x02000000)
T1C8C 001:462.740    -- Read from C cache (4 bytes @ 0x20000068)
T1C8C 001:462.758   Data:  01 00 00 00
T1C8C 001:462.777 - 0.060ms returns 4 (0x4)
T1C8C 001:462.803 JLINK_ReadMemEx(0x20000068, 0x4 Bytes, Flags = 0x02000000)
T1C8C 001:462.817    -- Read from C cache (4 bytes @ 0x20000068)
T1C8C 001:462.835   Data:  01 00 00 00
T1C8C 001:462.853 - 0.055ms returns 4 (0x4)
T1C8C 001:472.267 JLINK_ReadMemEx(0x20000008, 0x4 Bytes, Flags = 0x02000000)
T1C8C 001:472.322   CPU_ReadMem(64 bytes @ 0x20000000)
T1C8C 001:473.002    -- Updating C cache (64 bytes @ 0x20000000)
T1C8C 001:473.027    -- Read from C cache (4 bytes @ 0x20000008)
T1C8C 001:473.046   Data:  01 00 00 00
T1C8C 001:473.064 - 0.804ms returns 4 (0x4)
T1C8C 001:473.350 JLINK_ReadMemEx(0x20000008, 0x4 Bytes, Flags = 0x02000000)
T1C8C 001:473.368    -- Read from C cache (4 bytes @ 0x20000008)
T1C8C 001:473.386   Data:  01 00 00 00
T1C8C 001:473.404 - 0.060ms returns 4 (0x4)
T1C8C 001:473.434 JLINK_ReadMemEx(0x20000008, 0x4 Bytes, Flags = 0x02000000)
T1C8C 001:473.447    -- Read from C cache (4 bytes @ 0x20000008)
T1C8C 001:473.468   Data:  01 00 00 00
T1C8C 001:473.486 - 0.058ms returns 4 (0x4)
T1C8C 001:479.032 JLINK_ReadMemEx(0x2000000C, 0x4 Bytes, Flags = 0x02000000)
T1C8C 001:479.069    -- Read from C cache (4 bytes @ 0x2000000C)
T1C8C 001:479.096   Data:  00 00 00 00
T1C8C 001:479.123 - 0.099ms returns 4 (0x4)
T1C8C 001:479.395 JLINK_ReadMemEx(0x2000000C, 0x4 Bytes, Flags = 0x02000000)
T1C8C 001:479.418    -- Read from C cache (4 bytes @ 0x2000000C)
T1C8C 001:479.444   Data:  00 00 00 00
T1C8C 001:479.470 - 0.083ms returns 4 (0x4)
T1C8C 001:479.506 JLINK_ReadMemEx(0x2000000C, 0x4 Bytes, Flags = 0x02000000)
T1C8C 001:479.525    -- Read from C cache (4 bytes @ 0x2000000C)
T1C8C 001:479.551   Data:  00 00 00 00
T1C8C 001:479.577 - 0.080ms returns 4 (0x4)
T1C8C 001:485.161 JLINK_ReadMemEx(0x20000018, 0x4 Bytes, Flags = 0x02000000)
T1C8C 001:485.200    -- Read from C cache (4 bytes @ 0x20000018)
T1C8C 001:485.219   Data:  01 00 00 00
T1C8C 001:485.237 - 0.082ms returns 4 (0x4)
T1C8C 001:485.469 JLINK_ReadMemEx(0x20000018, 0x4 Bytes, Flags = 0x02000000)
T1C8C 001:485.485    -- Read from C cache (4 bytes @ 0x20000018)
T1C8C 001:485.504   Data:  01 00 00 00
T1C8C 001:485.527 - 0.064ms returns 4 (0x4)
T1C8C 001:485.553 JLINK_ReadMemEx(0x20000018, 0x4 Bytes, Flags = 0x02000000)
T1C8C 001:485.567    -- Read from C cache (4 bytes @ 0x20000018)
T1C8C 001:485.585   Data:  01 00 00 00
T1C8C 001:485.608 - 0.062ms returns 4 (0x4)
T1C8C 001:491.365 JLINK_ReadMemEx(0x200010EC, 0x4 Bytes, Flags = 0x02000000)
T1C8C 001:491.409   CPU_ReadMem(64 bytes @ 0x200010C0)
T1C8C 001:492.106    -- Updating C cache (64 bytes @ 0x200010C0)
T1C8C 001:492.133    -- Read from C cache (4 bytes @ 0x200010EC)
T1C8C 001:492.152   Data:  9A 99 99 BE
T1C8C 001:492.170 - 0.811ms returns 4 (0x4)
T1C8C 001:492.590 JLINK_ReadMemEx(0x200010EC, 0x4 Bytes, Flags = 0x02000000)
T1C8C 001:492.619    -- Read from C cache (4 bytes @ 0x200010EC)
T1C8C 001:492.641   Data:  9A 99 99 BE
T1C8C 001:492.659 - 0.075ms returns 4 (0x4)
T1C8C 001:492.691 JLINK_ReadMemEx(0x200010EC, 0x4 Bytes, Flags = 0x02000000)
T1C8C 001:492.704    -- Read from C cache (4 bytes @ 0x200010EC)
T1C8C 001:492.722   Data:  9A 99 99 BE
T1C8C 001:492.740 - 0.055ms returns 4 (0x4)
T1C8C 001:499.126 JLINK_ReadMemEx(0x00000000, 0x4 Bytes, Flags = 0x02000000)
T1C8C 001:499.164   CPU_ReadMem(4 bytes @ 0x40023844)
T1C8C 001:499.550   CPU_ReadMem(64 bytes @ 0x08000000)
T1C8C 001:500.322    -- Updating C cache (64 bytes @ 0x08000000)
T1C8C 001:500.347    -- Read from C cache (4 bytes @ 0x08000000)
T1C8C 001:500.366   Data:  18 18 00 20
T1C8C 001:500.384 - 1.264ms returns 4 (0x4)
T1C8C 001:500.997 JLINK_ReadMemEx(0x00000000, 0x4 Bytes, Flags = 0x02000000)
T1C8C 001:501.026    -- Read from C cache (4 bytes @ 0x08000000)
T1C8C 001:501.053   Data:  18 18 00 20
T1C8C 001:501.080 - 0.091ms returns 4 (0x4)
T1C8C 001:501.120 JLINK_ReadMemEx(0x00000000, 0x4 Bytes, Flags = 0x02000000)
T1C8C 001:501.140    -- Read from C cache (4 bytes @ 0x08000000)
T1C8C 001:501.166   Data:  18 18 00 20
T1C8C 001:501.192 - 0.081ms returns 4 (0x4)
T1C8C 001:508.981 JLINK_ReadMemEx(0x20000078, 0x4 Bytes, Flags = 0x02000000)
T1C8C 001:509.026    -- Read from C cache (4 bytes @ 0x20000078)
T1C8C 001:509.050   Data:  DD FF FF FF
T1C8C 001:509.074 - 0.101ms returns 4 (0x4)
T1C8C 001:509.307 JLINK_ReadMemEx(0x20000078, 0x4 Bytes, Flags = 0x02000000)
T1C8C 001:509.323    -- Read from C cache (4 bytes @ 0x20000078)
T1C8C 001:509.341   Data:  DD FF FF FF
T1C8C 001:509.359 - 0.057ms returns 4 (0x4)
T1C8C 001:509.388 JLINK_ReadMemEx(0x20000078, 0x4 Bytes, Flags = 0x02000000)
T1C8C 001:509.402    -- Read from C cache (4 bytes @ 0x20000078)
T1C8C 001:509.420   Data:  DD FF FF FF
T1C8C 001:509.437 - 0.055ms returns 4 (0x4)
T1C8C 001:515.372 JLINK_ReadMemEx(0x2000006C, 0x4 Bytes, Flags = 0x02000000)
T1C8C 001:515.408    -- Read from C cache (4 bytes @ 0x2000006C)
T1C8C 001:515.427   Data:  62 92 00 00
T1C8C 001:515.445 - 0.079ms returns 4 (0x4)
T1C8C 001:515.893 JLINK_ReadMemEx(0x2000006C, 0x4 Bytes, Flags = 0x02000000)
T1C8C 001:515.920    -- Read from C cache (4 bytes @ 0x2000006C)
T1C8C 001:515.939   Data:  62 92 00 00
T1C8C 001:515.957 - 0.069ms returns 4 (0x4)
T1C8C 001:515.988 JLINK_ReadMemEx(0x2000006C, 0x4 Bytes, Flags = 0x02000000)
T1C8C 001:516.003    -- Read from C cache (4 bytes @ 0x2000006C)
T1C8C 001:516.021   Data:  62 92 00 00
T1C8C 001:516.039 - 0.056ms returns 4 (0x4)
T51C0 001:541.105 JLINK_ReadMemEx(0x08000228, 0x2 Bytes, Flags = 0x02000000)
T51C0 001:541.151    -- Read from C cache (2 bytes @ 0x08000228)
T51C0 001:541.178   Data:  09 48
T51C0 001:541.205 - 0.108ms returns 2 (0x2)
T51C0 001:541.226 JLINK_HasError()
T51C0 001:541.255 JLINK_SetBPEx(Addr = 0x08003D88, Type = 0xFFFFFFF2)
T51C0 001:541.282 - 0.043ms returns 0x00000001
T51C0 001:541.302 JLINK_HasError()
T51C0 001:541.321 JLINK_HasError()
T51C0 001:541.340 JLINK_ReadMemU32(0xE0001004, 0x1 Items)
T51C0 001:541.362   Data:  00 00 00 00
T51C0 001:541.389   Debug reg: DWT_CYCCNT
T51C0 001:541.415 - 0.084ms returns 1 (0x1)
T51C0 001:541.437 JLINK_WriteU32_64(0xE0001004, 0x000003FF)
T51C0 001:541.455   Debug reg: DWT_CYCCNT
T51C0 001:541.486 - 0.058ms returns 0 (0x00000000)
T51C0 001:541.512 JLINK_WriteU32_64(0xE0001000, 0x00410A1F)
T51C0 001:541.532   Debug reg: DWT_CTRL
T51C0 001:541.563 - 0.059ms returns 0 (0x00000000)
T51C0 001:541.586 JLINK_WriteU32_64(0xE0000E80, 0x0001000F)
T51C0 001:541.604   Debug reg: ITM_TCR
T51C0 001:541.631 - 0.054ms returns 0 (0x00000000)
T51C0 001:541.658 JLINK_SWO_Control(JLINKARM_SWO_CMD_GET_NUM_BYTES, ...)
T51C0 001:541.676 - 0.027ms returns 0x00
T51C0 001:541.699 JLINK_Go()
T51C0 001:541.740   CPU_WriteMem(4 bytes @ 0xE0002000)
T51C0 001:542.135   CPU_WriteMem(4 bytes @ 0xE0001000)
T51C0 001:542.631   CPU_ReadMem(4 bytes @ 0xE0001000)
T51C0 001:543.108   CPU_WriteMem(4 bytes @ 0xE0000E80)
T51C0 001:543.162   CPU_WriteMem(4 bytes @ 0xE0001008)
T51C0 001:543.190   CPU_WriteMem(4 bytes @ 0xE000100C)
T51C0 001:543.216   CPU_WriteMem(4 bytes @ 0xE0001010)
T51C0 001:543.245   CPU_WriteMem(4 bytes @ 0xE0001014)
T51C0 001:543.280   CPU_WriteMem(4 bytes @ 0xE0001018)
T51C0 001:543.313   CPU_WriteMem(4 bytes @ 0xE0002008)
T51C0 001:543.349   CPU_WriteMem(4 bytes @ 0xE000200C)
T51C0 001:543.375   CPU_WriteMem(4 bytes @ 0xE0002010)
T51C0 001:543.408   CPU_WriteMem(4 bytes @ 0xE0002014)
T51C0 001:543.445   CPU_WriteMem(4 bytes @ 0xE0002018)
T51C0 001:543.471   CPU_WriteMem(4 bytes @ 0xE000201C)
T51C0 001:545.436   CPU_WriteMem(4 bytes @ 0xE0001004)
T51C0 001:546.197 - 4.513ms
T51C0 001:546.227 JLINK_WriteU32_64(0xE0001000, 0x00010A1F)
T51C0 001:546.242   Debug reg: DWT_CTRL
T51C0 001:546.274   CPU is running
T51C0 001:546.297   CPU_WriteMem(4 bytes @ 0xE0001000)
T51C0 001:546.648 - 0.434ms returns 0 (0x00000000)
T51C0 001:646.785 JLINK_SWO_Read(..., Offset = 0x00, NumBytes = 0x400000)
T51C0 001:646.810   Data: 
T51C0 001:646.830 - 0.052ms returns NumBytesRead = 0x00
T51C0 001:646.846 JLINK_SWO_Control(JLINKARM_SWO_CMD_FLUSH, ...)
T51C0 001:646.861 - 0.021ms returns 0x00
T51C0 001:646.878 JLINK_HasError()
T51C0 001:646.894 JLINK_IsHalted()
T51C0 001:648.666 - 1.780ms returns TRUE
T51C0 001:648.687 JLINK_HasError()
T51C0 001:648.706 JLINK_Halt()
T51C0 001:648.719 - 0.022ms returns 0x00
T51C0 001:648.741 JLINK_IsHalted()
T51C0 001:648.754 - 0.020ms returns TRUE
T51C0 001:648.773 JLINK_IsHalted()
T51C0 001:648.786 - 0.021ms returns TRUE
T51C0 001:648.807 JLINK_IsHalted()
T51C0 001:648.821 - 0.020ms returns TRUE
T51C0 001:648.839 JLINK_HasError()
T51C0 001:649.010 JLINK_ReadReg(R15 (PC))
T51C0 001:649.028 - 0.025ms returns 0x08003D88
T51C0 001:649.043 JLINK_ReadReg(XPSR)
T51C0 001:649.058 - 0.023ms returns 0x21000000
T51C0 001:649.077 JLINK_SWO_Read(..., Offset = 0x00, NumBytes = 0x400000)
T51C0 001:649.090   Data: 
T51C0 001:649.110 - 0.040ms returns NumBytesRead = 0x00
T51C0 001:649.128 JLINK_SWO_Control(JLINKARM_SWO_CMD_FLUSH, ...)
T51C0 001:649.145 - 0.023ms returns 0x00
T51C0 001:649.161 JLINK_HasError()
T51C0 001:649.176 JLINK_ClrBPEx(BPHandle = 0x00000001)
T51C0 001:649.191 - 0.021ms returns 0x00
T51C0 001:649.205 JLINK_HasError()
T51C0 001:649.220 JLINK_HasError()
T51C0 001:649.235 JLINK_ReadMemU32(0xE000ED30, 0x1 Items)
T51C0 001:649.259   CPU_ReadMem(4 bytes @ 0xE000ED30)
T51C0 001:649.494   Data:  02 00 00 00
T51C0 001:649.519 - 0.290ms returns 1 (0x1)
T51C0 001:649.535 JLINK_ReadMemU32(0xE0001028, 0x1 Items)
T51C0 001:649.551   CPU_ReadMem(4 bytes @ 0xE0001028)
T51C0 001:649.786   Data:  00 00 00 00
T51C0 001:649.812   Debug reg: DWT_FUNC[0]
T51C0 001:649.834 - 0.305ms returns 1 (0x1)
T51C0 001:649.850 JLINK_ReadMemU32(0xE0001038, 0x1 Items)
T51C0 001:649.865   CPU_ReadMem(4 bytes @ 0xE0001038)
T51C0 001:650.090   Data:  00 02 00 00
T51C0 001:650.111   Debug reg: DWT_FUNC[1]
T51C0 001:650.131 - 0.287ms returns 1 (0x1)
T51C0 001:650.147 JLINK_ReadMemU32(0xE0001048, 0x1 Items)
T51C0 001:650.162   CPU_ReadMem(4 bytes @ 0xE0001048)
T51C0 001:650.401   Data:  00 00 00 00
T51C0 001:650.422   Debug reg: DWT_FUNC[2]
T51C0 001:650.442 - 0.301ms returns 1 (0x1)
T51C0 001:650.457 JLINK_ReadMemU32(0xE0001058, 0x1 Items)
T51C0 001:650.472   CPU_ReadMem(4 bytes @ 0xE0001058)
T51C0 001:650.722   Data:  00 00 00 00
T51C0 001:650.753   Debug reg: DWT_FUNC[3]
T51C0 001:650.778 - 0.328ms returns 1 (0x1)
T51C0 001:650.943 JLINK_HasError()
T51C0 001:650.965 JLINK_ReadReg(R0)
T51C0 001:650.979 - 0.021ms returns 0x20001218
T51C0 001:650.994 JLINK_ReadReg(R1)
T51C0 001:651.008 - 0.020ms returns 0x20001418
T51C0 001:651.022 JLINK_ReadReg(R2)
T51C0 001:651.036 - 0.020ms returns 0x20001418
T51C0 001:651.051 JLINK_ReadReg(R3)
T51C0 001:651.065 - 0.020ms returns 0x20001418
T51C0 001:651.080 JLINK_ReadReg(R4)
T51C0 001:651.093 - 0.020ms returns 0x00000000
T51C0 001:651.108 JLINK_ReadReg(R5)
T51C0 001:651.121 - 0.020ms returns 0x200011B4
T51C0 001:651.136 JLINK_ReadReg(R6)
T51C0 001:651.150 - 0.020ms returns 0x00000000
T51C0 001:651.164 JLINK_ReadReg(R7)
T51C0 001:651.178 - 0.020ms returns 0x00000000
T51C0 001:651.193 JLINK_ReadReg(R8)
T51C0 001:651.207 - 0.020ms returns 0x00000000
T51C0 001:651.221 JLINK_ReadReg(R9)
T51C0 001:651.235 - 0.020ms returns 0x00000000
T51C0 001:651.249 JLINK_ReadReg(R10)
T51C0 001:651.263 - 0.020ms returns 0x08005368
T51C0 001:651.281 JLINK_ReadReg(R11)
T51C0 001:651.295 - 0.022ms returns 0x00000000
T51C0 001:651.315 JLINK_ReadReg(R12)
T51C0 001:651.329 - 0.020ms returns 0x200011F4
T51C0 001:651.343 JLINK_ReadReg(R13 (SP))
T51C0 001:651.357 - 0.020ms returns 0x20001818
T51C0 001:651.372 JLINK_ReadReg(R14)
T51C0 001:651.386 - 0.020ms returns 0x08000217
T51C0 001:651.400 JLINK_ReadReg(R15 (PC))
T51C0 001:651.414 - 0.020ms returns 0x08003D88
T51C0 001:651.428 JLINK_ReadReg(XPSR)
T51C0 001:651.442 - 0.020ms returns 0x21000000
T51C0 001:651.456 JLINK_ReadReg(MSP)
T51C0 001:651.470 - 0.020ms returns 0x20001818
T51C0 001:651.485 JLINK_ReadReg(PSP)
T51C0 001:651.499 - 0.020ms returns 0x00000000
T51C0 001:651.513 JLINK_ReadReg(CFBP)
T51C0 001:651.527 - 0.020ms returns 0x04000000
T51C0 001:651.542 JLINK_ReadReg(FPSCR)
T51C0 001:654.349 - 2.822ms returns 0x03000000
T51C0 001:654.376 JLINK_ReadReg(FPS0)
T51C0 001:654.392 - 0.022ms returns 0x00000000
T51C0 001:654.408 JLINK_ReadReg(FPS1)
T51C0 001:654.422 - 0.020ms returns 0x00000000
T51C0 001:654.438 JLINK_ReadReg(FPS2)
T51C0 001:654.451 - 0.020ms returns 0x00000000
T51C0 001:654.467 JLINK_ReadReg(FPS3)
T51C0 001:654.481 - 0.020ms returns 0x00000000
T51C0 001:654.499 JLINK_ReadReg(FPS4)
T51C0 001:654.513 - 0.020ms returns 0x00000000
T51C0 001:654.530 JLINK_ReadReg(FPS5)
T51C0 001:654.544 - 0.020ms returns 0x00000000
T51C0 001:654.562 JLINK_ReadReg(FPS6)
T51C0 001:654.576 - 0.020ms returns 0x00000000
T51C0 001:654.594 JLINK_ReadReg(FPS7)
T51C0 001:654.608 - 0.020ms returns 0x00000000
T51C0 001:654.625 JLINK_ReadReg(FPS8)
T51C0 001:654.639 - 0.020ms returns 0x00000000
T51C0 001:654.657 JLINK_ReadReg(FPS9)
T51C0 001:654.671 - 0.020ms returns 0x00000000
T51C0 001:654.688 JLINK_ReadReg(FPS10)
T51C0 001:654.702 - 0.020ms returns 0x00000000
T51C0 001:654.720 JLINK_ReadReg(FPS11)
T51C0 001:654.733 - 0.020ms returns 0x00000000
T51C0 001:654.751 JLINK_ReadReg(FPS12)
T51C0 001:654.765 - 0.020ms returns 0x00000000
T51C0 001:654.781 JLINK_ReadReg(FPS13)
T51C0 001:654.794 - 0.020ms returns 0x00000000
T51C0 001:654.810 JLINK_ReadReg(FPS14)
T51C0 001:654.824 - 0.020ms returns 0x00000000
T51C0 001:654.840 JLINK_ReadReg(FPS15)
T51C0 001:654.853 - 0.020ms returns 0x00000000
T51C0 001:654.869 JLINK_ReadReg(FPS16)
T51C0 001:654.883 - 0.020ms returns 0x00000000
T51C0 001:654.899 JLINK_ReadReg(FPS17)
T51C0 001:654.913 - 0.020ms returns 0x00000000
T51C0 001:654.928 JLINK_ReadReg(FPS18)
T51C0 001:654.942 - 0.020ms returns 0x00000000
T51C0 001:654.958 JLINK_ReadReg(FPS19)
T51C0 001:654.972 - 0.020ms returns 0x00000000
T51C0 001:654.987 JLINK_ReadReg(FPS20)
T51C0 001:655.001 - 0.020ms returns 0x00000000
T51C0 001:655.018 JLINK_ReadReg(FPS21)
T51C0 001:655.032 - 0.020ms returns 0x00000000
T51C0 001:655.050 JLINK_ReadReg(FPS22)
T51C0 001:655.064 - 0.020ms returns 0x00000000
T51C0 001:655.082 JLINK_ReadReg(FPS23)
T51C0 001:655.095 - 0.020ms returns 0x00000000
T51C0 001:655.113 JLINK_ReadReg(FPS24)
T51C0 001:655.129 - 0.023ms returns 0x00000000
T51C0 001:655.147 JLINK_ReadReg(FPS25)
T51C0 001:655.161 - 0.020ms returns 0x00000000
T51C0 001:655.179 JLINK_ReadReg(FPS26)
T51C0 001:655.192 - 0.020ms returns 0x00000000
T51C0 001:655.210 JLINK_ReadReg(FPS27)
T51C0 001:655.223 - 0.020ms returns 0x00000000
T51C0 001:655.241 JLINK_ReadReg(FPS28)
T51C0 001:655.255 - 0.020ms returns 0x00000000
T51C0 001:655.273 JLINK_ReadReg(FPS29)
T51C0 001:655.286 - 0.020ms returns 0x00000000
T51C0 001:655.302 JLINK_ReadReg(FPS30)
T51C0 001:655.316 - 0.020ms returns 0x00000000
T51C0 001:655.332 JLINK_ReadReg(FPS31)
T51C0 001:655.345 - 0.020ms returns 0x00000000
T1C8C 001:656.193 JLINK_HasError()
T1C8C 001:656.217 JLINK_ReadMemU32(0xE0001004, 0x1 Items)
T1C8C 001:656.238   CPU_ReadMem(4 bytes @ 0xE0001004)
T1C8C 001:656.493   Data:  03 11 00 00
T1C8C 001:656.520   Debug reg: DWT_CYCCNT
T1C8C 001:656.543 - 0.332ms returns 1 (0x1)
T1C8C 001:659.623 JLINK_ReadMemEx(0x20000068, 0x4 Bytes, Flags = 0x02000000)
T1C8C 001:659.661   CPU_ReadMem(64 bytes @ 0x20000040)
T1C8C 001:660.152    -- Updating C cache (64 bytes @ 0x20000040)
T1C8C 001:660.176    -- Read from C cache (4 bytes @ 0x20000068)
T1C8C 001:660.197   Data:  00 00 00 00
T1C8C 001:660.217 - 0.602ms returns 4 (0x4)
T1C8C 001:660.429 JLINK_ReadMemEx(0x20000008, 0x4 Bytes, Flags = 0x02000000)
T1C8C 001:660.452   CPU_ReadMem(64 bytes @ 0x20000000)
T1C8C 001:660.936    -- Updating C cache (64 bytes @ 0x20000000)
T1C8C 001:660.958    -- Read from C cache (4 bytes @ 0x20000008)
T1C8C 001:660.978   Data:  00 00 00 00
T1C8C 001:660.999 - 0.578ms returns 4 (0x4)
T1C8C 001:661.207 JLINK_ReadMemEx(0x2000000C, 0x4 Bytes, Flags = 0x02000000)
T1C8C 001:661.227    -- Read from C cache (4 bytes @ 0x2000000C)
T1C8C 001:661.248   Data:  00 00 00 00
T1C8C 001:661.268 - 0.068ms returns 4 (0x4)
T1C8C 001:661.289 JLINK_ReadMemEx(0x20000018, 0x4 Bytes, Flags = 0x02000000)
T1C8C 001:661.303    -- Read from C cache (4 bytes @ 0x20000018)
T1C8C 001:661.324   Data:  01 00 00 00
T1C8C 001:661.344 - 0.061ms returns 4 (0x4)
T1C8C 001:661.365 JLINK_ReadMemEx(0x200010EC, 0x4 Bytes, Flags = 0x02000000)
T1C8C 001:661.382   CPU_ReadMem(64 bytes @ 0x200010C0)
T1C8C 001:661.858    -- Updating C cache (64 bytes @ 0x200010C0)
T1C8C 001:661.880    -- Read from C cache (4 bytes @ 0x200010EC)
T1C8C 001:661.900   Data:  00 00 00 00
T1C8C 001:661.920 - 0.562ms returns 4 (0x4)
T1C8C 001:662.105 JLINK_ReadMemEx(0x00000000, 0x4 Bytes, Flags = 0x02000000)
T1C8C 001:662.124   CPU_ReadMem(4 bytes @ 0x40023844)
T1C8C 001:662.352   CPU_ReadMem(64 bytes @ 0x08000000)
T1C8C 001:662.822    -- Updating C cache (64 bytes @ 0x08000000)
T1C8C 001:662.843    -- Read from C cache (4 bytes @ 0x08000000)
T1C8C 001:662.864   Data:  18 18 00 20
T1C8C 001:662.884 - 0.785ms returns 4 (0x4)
T1C8C 001:663.097 JLINK_ReadMemEx(0x20000078, 0x4 Bytes, Flags = 0x02000000)
T1C8C 001:663.137    -- Read from C cache (4 bytes @ 0x20000078)
T1C8C 001:663.158   Data:  00 00 00 00
T1C8C 001:663.182 - 0.094ms returns 4 (0x4)
T1C8C 001:663.512 JLINK_ReadMemEx(0x2000006C, 0x4 Bytes, Flags = 0x02000000)
T1C8C 001:663.534    -- Read from C cache (4 bytes @ 0x2000006C)
T1C8C 001:663.554   Data:  00 00 00 00
T1C8C 001:663.575 - 0.070ms returns 4 (0x4)
T1C8C 006:625.346 JLINK_ReadMemEx(0x20000388, 0x4 Bytes, Flags = 0x02000000)
T1C8C 006:625.399   CPU_ReadMem(64 bytes @ 0x20000380)
T1C8C 006:626.011    -- Updating C cache (64 bytes @ 0x20000380)
T1C8C 006:626.046    -- Read from C cache (4 bytes @ 0x20000388)
T1C8C 006:626.072   Data:  00 00 00 00
T1C8C 006:626.096 - 0.758ms returns 4 (0x4)
T1C8C 006:626.129 JLINK_ReadMemEx(0x2000038C, 0x4 Bytes, Flags = 0x02000000)
T1C8C 006:626.159    -- Read from C cache (4 bytes @ 0x2000038C)
T1C8C 006:626.183   Data:  00 00 00 00
T1C8C 006:626.209 - 0.093ms returns 4 (0x4)
T1C8C 006:626.235 JLINK_ReadMemEx(0x20000390, 0x4 Bytes, Flags = 0x02000000)
T1C8C 006:626.252    -- Read from C cache (4 bytes @ 0x20000390)
T1C8C 006:626.282   Data:  00 00 00 00
T1C8C 006:626.313 - 0.086ms returns 4 (0x4)
T1C8C 006:626.333 JLINK_ReadMemEx(0x20000394, 0x4 Bytes, Flags = 0x02000000)
T1C8C 006:626.350    -- Read from C cache (4 bytes @ 0x20000394)
T1C8C 006:626.373   Data:  00 00 00 00
T1C8C 006:626.396 - 0.071ms returns 4 (0x4)
T1C8C 006:626.416 JLINK_ReadMemEx(0x20000398, 0x4 Bytes, Flags = 0x02000000)
T1C8C 006:626.433    -- Read from C cache (4 bytes @ 0x20000398)
T1C8C 006:626.457   Data:  00 00 00 00
T1C8C 006:626.481 - 0.072ms returns 4 (0x4)
T1C8C 006:626.500 JLINK_ReadMemEx(0x2000039C, 0x4 Bytes, Flags = 0x02000000)
T1C8C 006:626.517    -- Read from C cache (4 bytes @ 0x2000039C)
T1C8C 006:626.541   Data:  00 00 00 00
T1C8C 006:626.565 - 0.072ms returns 4 (0x4)
T1C8C 006:626.584 JLINK_ReadMemEx(0x200003A0, 0x4 Bytes, Flags = 0x02000000)
T1C8C 006:626.601    -- Read from C cache (4 bytes @ 0x200003A0)
T1C8C 006:626.625   Data:  00 00 00 00
T1C8C 006:626.649 - 0.072ms returns 4 (0x4)
T1C8C 006:626.671 JLINK_ReadMemEx(0x200003A4, 0x4 Bytes, Flags = 0x02000000)
T1C8C 006:626.688    -- Read from C cache (4 bytes @ 0x200003A4)
T1C8C 006:626.712   Data:  00 00 00 00
T1C8C 006:626.735 - 0.072ms returns 4 (0x4)
T1C8C 006:626.756 JLINK_ReadMemEx(0x200003A8, 0x4 Bytes, Flags = 0x02000000)
T1C8C 006:626.775    -- Read from C cache (4 bytes @ 0x200003A8)
T1C8C 006:626.799   Data:  00 00 00 00
T1C8C 006:626.822 - 0.074ms returns 4 (0x4)
T1C8C 006:626.849 JLINK_ReadMemEx(0x20000388, 0x4 Bytes, Flags = 0x02000000)
T1C8C 006:626.866    -- Read from C cache (4 bytes @ 0x20000388)
T1C8C 006:626.890   Data:  00 00 00 00
T1C8C 006:626.914 - 0.072ms returns 4 (0x4)
T1C8C 006:626.935 JLINK_ReadMemEx(0x2000038C, 0x4 Bytes, Flags = 0x02000000)
T1C8C 006:626.952    -- Read from C cache (4 bytes @ 0x2000038C)
T1C8C 006:626.976   Data:  00 00 00 00
T1C8C 006:626.999 - 0.071ms returns 4 (0x4)
T1C8C 006:627.018 JLINK_ReadMemEx(0x20000390, 0x4 Bytes, Flags = 0x02000000)
T1C8C 006:627.035    -- Read from C cache (4 bytes @ 0x20000390)
T1C8C 006:627.059   Data:  00 00 00 00
T1C8C 006:627.083 - 0.072ms returns 4 (0x4)
T1C8C 006:627.102 JLINK_ReadMemEx(0x20000394, 0x4 Bytes, Flags = 0x02000000)
T1C8C 006:627.118    -- Read from C cache (4 bytes @ 0x20000394)
T1C8C 006:627.142   Data:  00 00 00 00
T1C8C 006:627.166 - 0.072ms returns 4 (0x4)
T1C8C 006:627.185 JLINK_ReadMemEx(0x20000398, 0x4 Bytes, Flags = 0x02000000)
T1C8C 006:627.202    -- Read from C cache (4 bytes @ 0x20000398)
T1C8C 006:627.225   Data:  00 00 00 00
T1C8C 006:627.249 - 0.072ms returns 4 (0x4)
T1C8C 006:627.268 JLINK_ReadMemEx(0x2000039C, 0x4 Bytes, Flags = 0x02000000)
T1C8C 006:627.285    -- Read from C cache (4 bytes @ 0x2000039C)
T1C8C 006:627.308   Data:  00 00 00 00
T1C8C 006:627.331 - 0.071ms returns 4 (0x4)
T1C8C 006:627.350 JLINK_ReadMemEx(0x200003A0, 0x4 Bytes, Flags = 0x02000000)
T1C8C 006:627.367    -- Read from C cache (4 bytes @ 0x200003A0)
T1C8C 006:627.391   Data:  00 00 00 00
T1C8C 006:627.415 - 0.072ms returns 4 (0x4)
T1C8C 006:627.434 JLINK_ReadMemEx(0x200003A4, 0x4 Bytes, Flags = 0x02000000)
T1C8C 006:627.451    -- Read from C cache (4 bytes @ 0x200003A4)
T1C8C 006:627.474   Data:  00 00 00 00
T1C8C 006:627.498 - 0.071ms returns 4 (0x4)
T1C8C 006:627.517 JLINK_ReadMemEx(0x200003A8, 0x4 Bytes, Flags = 0x02000000)
T1C8C 006:627.534    -- Read from C cache (4 bytes @ 0x200003A8)
T1C8C 006:627.558   Data:  00 00 00 00
T1C8C 006:627.581 - 0.071ms returns 4 (0x4)
T1C8C 006:634.817 JLINK_ReadMemEx(0x20000388, 0x4 Bytes, Flags = 0x02000000)
T1C8C 006:634.847    -- Read from C cache (4 bytes @ 0x20000388)
T1C8C 006:634.866   Data:  00 00 00 00
T1C8C 006:634.885 - 0.073ms returns 4 (0x4)
T1C8C 006:634.907 JLINK_ReadMemEx(0x2000038C, 0x4 Bytes, Flags = 0x02000000)
T1C8C 006:634.921    -- Read from C cache (4 bytes @ 0x2000038C)
T1C8C 006:634.939   Data:  00 00 00 00
T1C8C 006:634.957 - 0.055ms returns 4 (0x4)
T1C8C 006:634.973 JLINK_ReadMemEx(0x20000390, 0x4 Bytes, Flags = 0x02000000)
T1C8C 006:634.985    -- Read from C cache (4 bytes @ 0x20000390)
T1C8C 006:635.003   Data:  00 00 00 00
T1C8C 006:635.025 - 0.059ms returns 4 (0x4)
T1C8C 006:635.041 JLINK_ReadMemEx(0x20000394, 0x4 Bytes, Flags = 0x02000000)
T1C8C 006:635.054    -- Read from C cache (4 bytes @ 0x20000394)
T1C8C 006:635.072   Data:  00 00 00 00
T1C8C 006:635.090 - 0.055ms returns 4 (0x4)
T1C8C 006:635.105 JLINK_ReadMemEx(0x20000398, 0x4 Bytes, Flags = 0x02000000)
T1C8C 006:635.118    -- Read from C cache (4 bytes @ 0x20000398)
T1C8C 006:635.136   Data:  00 00 00 00
T1C8C 006:635.154 - 0.055ms returns 4 (0x4)
T1C8C 006:635.168 JLINK_ReadMemEx(0x2000039C, 0x4 Bytes, Flags = 0x02000000)
T1C8C 006:635.181    -- Read from C cache (4 bytes @ 0x2000039C)
T1C8C 006:635.199   Data:  00 00 00 00
T1C8C 006:635.217 - 0.055ms returns 4 (0x4)
T1C8C 006:635.233 JLINK_ReadMemEx(0x200003A0, 0x4 Bytes, Flags = 0x02000000)
T1C8C 006:635.245    -- Read from C cache (4 bytes @ 0x200003A0)
T1C8C 006:635.263   Data:  00 00 00 00
T1C8C 006:635.281 - 0.054ms returns 4 (0x4)
T1C8C 006:635.296 JLINK_ReadMemEx(0x200003A4, 0x4 Bytes, Flags = 0x02000000)
T1C8C 006:635.309    -- Read from C cache (4 bytes @ 0x200003A4)
T1C8C 006:635.327   Data:  00 00 00 00
T1C8C 006:635.345 - 0.055ms returns 4 (0x4)
T1C8C 006:635.360 JLINK_ReadMemEx(0x200003A8, 0x4 Bytes, Flags = 0x02000000)
T1C8C 006:635.373    -- Read from C cache (4 bytes @ 0x200003A8)
T1C8C 006:635.391   Data:  00 00 00 00
T1C8C 006:635.409 - 0.055ms returns 4 (0x4)
T51C0 009:463.277 JLINK_ReadMemEx(0x08003D88, 0x2 Bytes, Flags = 0x02000000)
T51C0 009:463.376   CPU_ReadMem(64 bytes @ 0x08003D80)
T51C0 009:464.177    -- Updating C cache (64 bytes @ 0x08003D80)
T51C0 009:464.232    -- Read from C cache (2 bytes @ 0x08003D88)
T51C0 009:464.272   Data:  FC F7
T51C0 009:464.311 - 1.047ms returns 2 (0x2)
T51C0 009:464.349 JLINK_HasError()
T51C0 009:464.379 JLINK_HasError()
T51C0 009:464.409 JLINK_ReadMemU32(0xE0001004, 0x1 Items)
T51C0 009:464.444   Data:  03 11 00 00
T51C0 009:464.483   Debug reg: DWT_CYCCNT
T51C0 009:464.525 - 0.128ms returns 1 (0x1)
T51C0 009:464.555 JLINK_WriteU32_64(0xE0001004, 0x000013FF)
T51C0 009:464.582   Debug reg: DWT_CYCCNT
T51C0 009:464.628 - 0.085ms returns 0 (0x00000000)
T51C0 009:464.657 JLINK_WriteU32_64(0xE0001000, 0x00410A1F)
T51C0 009:464.683   Debug reg: DWT_CTRL
T51C0 009:464.723 - 0.078ms returns 0 (0x00000000)
T51C0 009:464.753 JLINK_WriteU32_64(0xE0000E80, 0x0001000F)
T51C0 009:464.779   Debug reg: ITM_TCR
T51C0 009:464.818 - 0.077ms returns 0 (0x00000000)
T51C0 009:464.849 JLINK_SWO_Control(JLINKARM_SWO_CMD_GET_NUM_BYTES, ...)
T51C0 009:464.876 - 0.040ms returns 0x00
T51C0 009:464.907 JLINK_Go()
T51C0 009:465.374   CPU_WriteMem(4 bytes @ 0xE0001000)
T51C0 009:465.887   CPU_ReadMem(4 bytes @ 0xE0001000)
T51C0 009:466.451   CPU_WriteMem(4 bytes @ 0xE0000E80)
T51C0 009:466.504   CPU_WriteMem(4 bytes @ 0xE0002008)
T51C0 009:467.144   CPU_WriteMem(4 bytes @ 0xE0001004)
T51C0 009:468.133 - 3.244ms
T51C0 009:468.170 JLINK_WriteU32_64(0xE0001000, 0x00010A1F)
T51C0 009:468.203   Debug reg: DWT_CTRL
T51C0 009:468.237   CPU is running
T51C0 009:468.269   CPU_WriteMem(4 bytes @ 0xE0001000)
T51C0 009:468.745 - 0.593ms returns 0 (0x00000000)
T51C0 009:570.312 JLINK_SWO_Read(..., Offset = 0x00, NumBytes = 0x400000)
T51C0 009:570.388   Data: 
T51C0 009:570.443 - 0.149ms returns NumBytesRead = 0x00
T51C0 009:570.485 JLINK_SWO_Control(JLINKARM_SWO_CMD_FLUSH, ...)
T51C0 009:570.523 - 0.056ms returns 0x00
T51C0 009:570.566 JLINK_HasError()
T51C0 009:570.608 JLINK_IsHalted()
T51C0 009:571.038 - 0.466ms returns FALSE
T51C0 009:672.203 JLINK_SWO_Read(..., Offset = 0x00, NumBytes = 0x400000)
T51C0 009:672.287   Data: 
T51C0 009:672.347 - 0.163ms returns NumBytesRead = 0x00
T51C0 009:672.392 JLINK_SWO_Control(JLINKARM_SWO_CMD_FLUSH, ...)
T51C0 009:672.432 - 0.059ms returns 0x00
T51C0 009:672.478 JLINK_HasError()
T51C0 009:672.523 JLINK_IsHalted()
T51C0 009:673.105 - 0.623ms returns FALSE
T51C0 009:774.184 JLINK_SWO_Read(..., Offset = 0x00, NumBytes = 0x400000)
T51C0 009:774.267   Data: 
T51C0 009:774.327 - 0.168ms returns NumBytesRead = 0x00
T51C0 009:774.380 JLINK_SWO_Control(JLINKARM_SWO_CMD_FLUSH, ...)
T51C0 009:774.422 - 0.061ms returns 0x00
T51C0 009:774.467 JLINK_HasError()
T51C0 009:774.518 JLINK_IsHalted()
T51C0 009:775.126 - 0.661ms returns FALSE
T51C0 009:875.756 JLINK_SWO_Read(..., Offset = 0x00, NumBytes = 0x400000)
T51C0 009:875.841   Data: 
T51C0 009:875.900 - 0.164ms returns NumBytesRead = 0x00
T51C0 009:875.945 JLINK_SWO_Control(JLINKARM_SWO_CMD_FLUSH, ...)
T51C0 009:875.986 - 0.060ms returns 0x00
T51C0 009:876.031 JLINK_HasError()
T51C0 009:876.077 JLINK_IsHalted()
T51C0 009:876.622 - 0.585ms returns FALSE
T51C0 009:977.009 JLINK_SWO_Read(..., Offset = 0x00, NumBytes = 0x400000)
T51C0 009:977.090   Data: 
T51C0 009:977.145 - 0.153ms returns NumBytesRead = 0x00
T51C0 009:977.187 JLINK_SWO_Control(JLINKARM_SWO_CMD_FLUSH, ...)
T51C0 009:977.225 - 0.056ms returns 0x00
T51C0 009:977.267 JLINK_HasError()
T51C0 009:977.312 JLINK_IsHalted()
T51C0 009:977.819 - 0.544ms returns FALSE
T51C0 010:078.677 JLINK_SWO_Read(..., Offset = 0x00, NumBytes = 0x400000)
T51C0 010:078.767   Data: 
T51C0 010:078.832 - 0.176ms returns NumBytesRead = 0x00
T51C0 010:078.882 JLINK_SWO_Control(JLINKARM_SWO_CMD_FLUSH, ...)
T51C0 010:078.926 - 0.065ms returns 0x00
T51C0 010:078.976 JLINK_HasError()
T51C0 010:079.026 JLINK_HasError()
T51C0 010:079.072 JLINK_ReadMemU32(0xE0001004, 0x1 Items)
T51C0 010:079.138   CPU_ReadMem(4 bytes @ 0xE0001004)
T51C0 010:079.652   Data:  2A 30 16 06
T51C0 010:079.741   Debug reg: DWT_CYCCNT
T51C0 010:079.805 - 0.753ms returns 1 (0x1)
T1C8C 010:085.942 JLINK_ReadMemEx(0x20000388, 0x4 Bytes, Flags = 0x02000000)
T1C8C 010:085.969   CPU_ReadMem(4 bytes @ 0x20000388)
T1C8C 010:086.411   Data:  00 00 00 00
